
**** 12/22/16 12:42:01 ******* PSpice Lite (March 2016) ******* ID# 10813 ****

 ** Profile: "SCHEMATIC1-circuitwithopampsusingVCVS"  [ C:\USERS\AYDýN UZUN\circuitwithopampsusingvcvs-PSpiceFiles\SCHEMATIC1\circuit


 ****     CIRCUIT DESCRIPTION


******************************************************************************




** Creating circuit file "circuitwithopampsusingVCVS.cir" 
** WARNING: THIS AUTOMATICALLY GENERATED FILE MAY BE OVERWRITTEN BY SUBSEQUENT SIMULATIONS

*Libraries: 
* Profile Libraries :
* Local Libraries :
.LIB "C:/Cadence/SPB_17.2/tools/capture/library/pspice/userlib/ad8608.lib" 
* From [PSPICE NETLIST] section of C:\Users\Aydýn Uzun\AppData\Roaming\SPB_Data\cdssetup\OrCAD_PSpice\17.2.0\PSpice.ini file:
.lib "nomd.lib" 

*Analysis directives: 
.TRAN  0 10s 0 
.OPTIONS ADVCONV
.PROBE64 V(alias(*)) I(alias(*)) W(alias(*)) D(alias(*)) NOISE(alias(*)) 
.INC "..\SCHEMATIC1.net" 



**** INCLUDING SCHEMATIC1.net ****
* source CIRCUITWITHOPAMPSUSINGVCVS
X_U8         N091950 N09273 Sw_tOpen PARAMS: tOpen=0 ttran=1u Rclosed=0.01
+  Ropen=1Meg
C_C2         N09263 N09273  1m  TC=0,0 
C_C1         N09141 N09151  1m  TC=0,0 
V_V1         N090390 0 -1
R_R16         N09385 N09219  100 TC=0,0 
R_R6         N09085 N09219  1k TC=0,0 
R_R7         N09219 N09141  1k TC=0,0 
R_R4         N09273 N09085  200 TC=0,0 
E_E4         N09401 0 N09141 0 10k
R_R15         N09085 0  1MEG TC=0,0 
V_V2         N091950 N09263 0.1
E_E6         N10035 0 N09859 0 10k
R_R22         N09645 N10035  100 TC=0,0 
E_E5         N09807 0 N09263 0 10k
E_E3         N09385 0 N09085 0 10k
R_R18         N09141 0  1MEG TC=0,0 
X_U7         N090990 N09151 Sw_tOpen PARAMS: tOpen=0 ttran=1u Rclosed=0.01
+  Ropen=1Meg
V_V3         N090990 N09141 0.05
R_R20         N09263 0  1MEG TC=0,0 
R_R9         N09645 N09859  2k TC=0,0 
R_R10         N09859 N09151  1k TC=0,0 
R_R17         N09401 N09151  100 TC=0,0 
R_R5         N09645 N09085  1k TC=0,0 
R_R1         N090390 N09085  1k TC=0,0 
R_R21         0 N09859  1MEG TC=0,0 
R_R8         N09151 N09263  1k TC=0,0 
R_R19         N09807 N09273  100 TC=0,0 

**** RESUMING circuitwithopampsusingVCVS.cir ****
.END

**** 12/22/16 12:42:01 ******* PSpice Lite (March 2016) ******* ID# 10813 ****

 ** Profile: "SCHEMATIC1-circuitwithopampsusingVCVS"  [ C:\USERS\AYDýN UZUN\circuitwithopampsusingvcvs-PSpiceFiles\SCHEMATIC1\circuit


 ****     Voltage Controlled Switch MODEL PARAMETERS


******************************************************************************




               X_U8.Smod       X_U7.Smod       
         RON     .01             .01         
        ROFF    1.000000E+06    1.000000E+06 
         VON    1               1            
        VOFF    0               0            


**** 12/22/16 12:42:01 ******* PSpice Lite (March 2016) ******* ID# 10813 ****

 ** Profile: "SCHEMATIC1-circuitwithopampsusingVCVS"  [ C:\USERS\AYDýN UZUN\circuitwithopampsusingvcvs-PSpiceFiles\SCHEMATIC1\circuit


 ****     INITIAL TRANSIENT SOLUTION       TEMPERATURE =   27.000 DEG C


******************************************************************************



 NODE   VOLTAGE     NODE   VOLTAGE     NODE   VOLTAGE     NODE   VOLTAGE


(N09085) 72.06E-06 (N09141)-6.042E-09 (N09151)     .0500 (N09219)     .6005     

(N09263) 14.50E-06 (N09273)     .1000 (N09385)     .7206 (N09401)-60.42E-06     

(N09645)    -.1000 (N09807)     .1450 (N09859)-11.50E-06 (N10035)    -.1150     

(X_U7.3)    1.0000 (X_U8.3)    1.0000 (N090390)   -1.0000                       

(N090990)     .0500                   (N091950)     .1000                   




    VOLTAGE SOURCE CURRENTS
    NAME         CURRENT

    V_V1         1.000E-03
    V_V2        -4.998E-05
    V_V3        -6.005E-04
    X_U8.V1     -1.000E-12
    X_U7.V1     -1.000E-12

    TOTAL POWER DISSIPATION   1.04E-03  WATTS



          JOB CONCLUDED

**** 12/22/16 12:42:01 ******* PSpice Lite (March 2016) ******* ID# 10813 ****

 ** Profile: "SCHEMATIC1-circuitwithopampsusingVCVS"  [ C:\USERS\AYDýN UZUN\circuitwithopampsusingvcvs-PSpiceFiles\SCHEMATIC1\circuit


 ****     JOB STATISTICS SUMMARY


******************************************************************************



  Total job time (using Solver 1)   =         .05
